<Qucs Dataset 0.0.18>
<indep x 10>
  +5.00000000000e+00
  +1.00000000000e+01
  +1.50000000000e+01
  +2.00000000000e+01
  +2.50000000000e+01
  +3.00000000000e+01
  +3.50000000000e+01
  +4.00000000000e+01
  +4.50000000000e+01
  +5.00000000000e+01
</indep>
<dep V1.I x>
  -3.43000000000e+00
  -2.28666666667e+00
  -1.71500000000e+00
  -1.37200000000e+00
  -1.14333333333e+00
  -9.80000000000e-01
  -8.57500000000e-01
  -7.62222222222e-01
  -6.86000000000e-01
  -6.23636363636e-01
</dep>
<dep Pr1.I x>
  +3.43000000000e+00
  +2.28666666667e+00
  +1.71500000000e+00
  +1.37200000000e+00
  +1.14333333333e+00
  +9.80000000000e-01
  +8.57500000000e-01
  +7.62222222222e-01
  +6.86000000000e-01
  +6.23636363636e-01
</dep>
<dep izeja.V x>
  +1.71500000000e+01
  +2.28666666667e+01
  +2.57250000000e+01
  +2.74400000000e+01
  +2.85833333333e+01
  +2.94000000000e+01
  +3.00125000000e+01
  +3.04888888889e+01
  +3.08700000000e+01
  +3.11818181818e+01
</dep>
<dep _net0.V x>
  +3.43000000000e+01
  +3.43000000000e+01
  +3.43000000000e+01
  +3.43000000000e+01
  +3.43000000000e+01
  +3.43000000000e+01
  +3.43000000000e+01
  +3.43000000000e+01
  +3.43000000000e+01
  +3.43000000000e+01
</dep>
<dep _net1.V x>
  +3.43000000000e+01
  +3.43000000000e+01
  +3.43000000000e+01
  +3.43000000000e+01
  +3.43000000000e+01
  +3.43000000000e+01
  +3.43000000000e+01
  +3.43000000000e+01
  +3.43000000000e+01
  +3.43000000000e+01
</dep>
